User : 2225 1562 command.c:546 command_print(): configure: bak_debug_buf = 0x00200000
Debug: 2226 1562 nds32_v5_cmd.c:545 handle_ndsv5_configure_command(): p_nds_bak_debug_buffer_start = 0xffc60008, p_nds_bak_debug_buffer_end = 0xffe60008
Debug: 2228 1563 nds32_v5_cmd.c:270 handle_ndsv5_configure_command(): NDS configure on [nds.tap] hart 0
User : 2229 1563 command.c:546 command_print(): configure: tdesc_bit ndsv5_tdesc_bitfield.xml
Debug: 2231 1563 nds32_v5_cmd.c:270 handle_ndsv5_configure_command(): NDS configure on [nds.tap] hart 0
User : 2232 1563 command.c:546 command_print(): configure: aligned_access
Debug: 2234 1563 nds32_v5_cmd.c:270 handle_ndsv5_configure_command(): NDS configure on [nds.tap] hart 0
User : 2235 1563 command.c:546 command_print(): configure: reg_symbolic_name
Debug: 2237 1563 nds32_v5_cmd.c:270 handle_ndsv5_configure_command(): NDS configure on [nds.tap] hart 0
User : 2238 1563 command.c:546 command_print(): configure: scan_retry_times = 0x00000003
Debug: 2240 1563 nds32_v5_cmd.c:270 handle_ndsv5_configure_command(): NDS configure on [nds.tap] hart 0
User : 2241 1563 command.c:546 command_print(): configure: jtag_scans_optimize = 0x00000004
Debug: 2243 1563 nds32_v5_cmd.c:270 handle_ndsv5_configure_command(): NDS configure on [nds.tap] hart 0
Debug: 2245 1563 nds32_v5_cmd.c:270 handle_ndsv5_configure_command(): NDS configure on [nds.tap] hart 0
User : 2246 1563 command.c:546 command_print(): configure: jtag_max_scans = 0x00000040
Info : 2247 1563 nds32_v5_cmd.c:370 handle_ndsv5_configure_command(): nds_ftdi_devices=1 and user defined jtag_max_scans >= 32,no update nds_jtag_max_scans
Info : 2248 1563 nds32_v5_cmd.c:371 handle_ndsv5_configure_command(): nds_jtag_max_scans: 32
Debug: 2250 1563 nds32_v5_cmd.c:270 handle_ndsv5_configure_command(): NDS configure on [nds.tap] hart 0
User : 2251 1563 command.c:546 command_print(): configure: dis_condition_break = 0x00000001
Debug: 2253 1563 nds32_v5_cmd.c:270 handle_ndsv5_configure_command(): NDS configure on [nds.tap] hart 0
User : 2254 1563 command.c:546 command_print(): configure: wip_bytes_per_dot = 0x00002000
Debug: 2256 1563 nds32_v5_cmd.c:270 handle_ndsv5_configure_command(): NDS configure on [nds.tap] hart 0
User : 2257 1563 command.c:546 command_print(): configure: dmi_quick_access = 0x00000000
Debug: 2259 1563 nds32_v5_cmd.c:270 handle_ndsv5_configure_command(): NDS configure on [nds.tap] hart 0
User : 2260 1563 command.c:546 command_print(): configure: dmi_access_mem = 0x00000001
Debug: 2262 1563 nds32_v5_cmd.c:270 handle_ndsv5_configure_command(): NDS configure on [nds.tap] hart 0
User : 2263 1563 command.c:546 command_print(): configure: sys_bus_access = 0x00000001
Debug: 2264 1564 configuration.c:82 find_file(): found board/nds_v5.cfg
Debug: 2266 1564 nds32_v5_cmd.c:270 handle_ndsv5_configure_command(): NDS configure on [nds.tap] hart 0
User : 2267 1564 command.c:546 command_print(): configure: log_file_size = 0x00a00000
Debug: 2269 1565 nds32_v5_cmd.c:270 handle_ndsv5_configure_command(): NDS configure on [nds.tap] hart 0
User : 2270 1565 command.c:546 command_print(): configure: desc Andes_v4.6.3_BUILD_ID_2020090411
Debug: 2272 1565 nds32_v5_cmd.c:270 handle_ndsv5_configure_command(): NDS configure on [nds.tap] hart 0
User : 2273 1565 command.c:546 command_print(): configure: burn_port 9900
Debug: 2274 1565 nds32_v5_burner_server.c:518 ndsv5_burner_server_init(): ndsv5_burner_server_init
Info : 2275 1566 server.c:373 add_service(): Listening on port 9900 for burner connections
Debug: 2277 1567 nds32_v5_cmd.c:270 handle_ndsv5_configure_command(): NDS configure on [nds.tap] hart 0
User : 2278 1567 command.c:546 command_print(): configure: halt_on_reset = 0x00000000
Debug: 2280 1567 nds32_v5_cmd.c:631 ndsv5cmd_set_boot_time(): ndsv5->boot_time = 5000
Debug: 2282 1567 nds32_v5_cmd.c:639 ndsv5cmd_set_reset_time(): ndsv5->reset_time = 1000
Info : 2283 1567 server.c:373 add_service(): Listening on port 6666 for tcl connections
Info : 2284 1568 server.c:373 add_service(): Listening on port 9901 for telnet connections
Debug: 2287 1568 target.c:1344 handle_target_init_command(): Initializing targets...
Debug: 2288 1568 riscv.c:280 riscv_init_target(): riscv_init_target()
Debug: 2289 1570 command.c:366 register_command_handler(): registering 'ocd_target_request'...
Debug: 2290 1570 command.c:366 register_command_handler(): registering 'ocd_trace'...
Debug: 2291 1570 command.c:366 register_command_handler(): registering 'ocd_trace'...
Debug: 2292 1570 command.c:366 register_command_handler(): registering 'ocd_fast_load_image'...
Debug: 2293 1570 command.c:366 register_command_handler(): registering 'ocd_fast_load'...
Debug: 2294 1570 command.c:366 register_command_handler(): registering 'ocd_profile'...
Debug: 2295 1570 command.c:366 register_command_handler(): registering 'ocd_virt2phys'...
Debug: 2296 1570 command.c:366 register_command_handler(): registering 'ocd_reg'...
Debug: 2297 1570 command.c:366 register_command_handler(): registering 'ocd_poll'...
Debug: 2298 1570 command.c:366 register_command_handler(): registering 'ocd_wait_halt'...
Debug: 2299 1570 command.c:366 register_command_handler(): registering 'ocd_halt'...
Debug: 2300 1570 command.c:366 register_command_handler(): registering 'ocd_resume'...
Debug: 2301 1570 command.c:366 register_command_handler(): registering 'ocd_reset'...
Debug: 2302 1570 command.c:366 register_command_handler(): registering 'ocd_soft_reset_halt'...
Debug: 2303 1570 command.c:366 register_command_handler(): registering 'ocd_step'...
Debug: 2304 1571 command.c:366 register_command_handler(): registering 'ocd_mdd'...
Debug: 2305 1571 command.c:366 register_command_handler(): registering 'ocd_mdw'...
Debug: 2306 1571 command.c:366 register_command_handler(): registering 'ocd_mdh'...
Debug: 2307 1571 command.c:366 register_command_handler(): registering 'ocd_mdb'...
Debug: 2308 1571 command.c:366 register_command_handler(): registering 'ocd_mwd'...
Debug: 2309 1571 command.c:366 register_command_handler(): registering 'ocd_mww'...
Debug: 2310 1571 command.c:366 register_command_handler(): registering 'ocd_mwh'...
Debug: 2311 1571 command.c:366 register_command_handler(): registering 'ocd_mwb'...
Debug: 2312 1571 command.c:366 register_command_handler(): registering 'ocd_bp'...
Debug: 2313 1571 command.c:366 register_command_handler(): registering 'ocd_rbp'...
Debug: 2314 1571 command.c:366 register_command_handler(): registering 'ocd_wp'...
Debug: 2315 1571 command.c:366 register_command_handler(): registering 'ocd_rwp'...
Debug: 2316 1571 command.c:366 register_command_handler(): registering 'ocd_load_image'...
Debug: 2317 1571 command.c:366 register_command_handler(): registering 'ocd_dump_image'...
Debug: 2318 1571 command.c:366 register_command_handler(): registering 'ocd_verify_image_checksum'...
Debug: 2319 1571 command.c:366 register_command_handler(): registering 'ocd_verify_image'...
Debug: 2320 1571 command.c:366 register_command_handler(): registering 'ocd_test_image'...
Debug: 2321 1571 command.c:366 register_command_handler(): registering 'ocd_reset_nag'...
Debug: 2322 1571 command.c:366 register_command_handler(): registering 'ocd_ps'...
Debug: 2323 1571 command.c:366 register_command_handler(): registering 'ocd_test_mem_access'...
Debug: 2324 1571 openocd.c:140 handle_init_command(): Debug Adapter init complete
Debug: 2326 1571 transport.c:239 handle_transport_init(): handle_transport_init
Debug: 2327 1571 core.c:1498 jtag_init_inner(): Init JTAG chain
Debug: 2328 1571 core.c:336 jtag_call_event_callbacks(): jtag event: TAP reset
Debug: 2329 1572 core.c:1144 jtag_examine_chain(): DR scan interrogation for IDCODE/BYPASS
Debug: 2330 1572 core.c:336 jtag_call_event_callbacks(): jtag event: TAP reset
Info : 2331 1572 core.c:1043 jtag_examine_chain_display(): JTAG tap: nds.tap tap/device found: 0x1000563d (mfg: 0x31e (Andes Technology Corporation), part: 0x0005, ver: 0x1)
Debug: 2332 1572 core.c:1289 jtag_validate_ircapture(): IR capture validation scan
Debug: 2333 1573 core.c:1347 jtag_validate_ircapture(): nds.tap: IR capture 0x01
Debug: 2334 1573 openocd.c:153 handle_init_command(): Examining targets...
Debug: 2335 1573 target.c:1537 target_call_event_callbacks(): target event 17 (examine-start)
Debug: 2336 1573 riscv.c:3286 ndsv5_examine(): ndsv5_examine
Debug: 2337 1574 riscv.c:253 dtmcontrol_scan(): DTMCONTROL: 0x0 -> 0x7071
Debug: 2338 1574 riscv.c:3302 ndsv5_examine(): dtmcontrol=0x7071
Debug: 2339 1574 riscv.c:748 riscv_examine(): riscv_examine()
Debug: 2340 1575 riscv.c:253 dtmcontrol_scan(): DTMCONTROL: 0x0 -> 0x7071
Debug: 2341 1575 riscv.c:758 riscv_examine(): dtmcontrol=0x7071
Debug: 2342 1575 riscv.c:760 riscv_examine():   version=0x1
Debug: 2343 1575 riscv-013.c:1580 init_target(): init
Debug: 2344 1575 riscv-013.c:1588 init_target(): ACE init
Debug: 2345 1575 riscv-013.c:1597 init_target(): acr_reg_count_v5 = 0
Debug: 2346 1575 riscv-013.c:1598 init_target(): acr_type_count_v5 = 0
Debug: 2347 1575 riscv-013.c:1782 examine(): examine, [nds.tap] coreid=0
Debug: 2348 1576 riscv-013.c:593 dtmcontrol_scan(): DTMCS: 0x0 -> 0x7071
Debug: 2349 1576 riscv-013.c:1784 examine(): dtmcontrol=0x7071
Debug: 2350 1576 riscv-013.c:1785 examine():   dmireset=0
Debug: 2351 1576 riscv-013.c:1786 examine():   idle=7
Debug: 2352 1576 riscv-013.c:1787 examine():   dmistat=0
Debug: 2353 1576 riscv-013.c:1788 examine():   abits=7
Debug: 2354 1576 riscv-013.c:1789 examine():   version=1
Debug: 2355 1577 riscv-013.c:450 scan(): 41b r 00000000 @11 -> + 00000000 @00
Debug: 2356 1577 riscv-013.c:450 scan(): 41b - 00000000 @11 -> + 0040cca2 @11
Debug: 2357 1577 riscv-013.c:464 scan(): 	DMI_DMSTATUS:  impebreak allnonexistent anynonexistent allrunning anyrunning authenticated hasresethaltreq version=0x2 
Debug: 2358 1577 riscv-013.c:1829 examine(): info->dmi_busy_delay: 0x00000003
Debug: 2359 1577 riscv-013.c:450 scan(): 41b w 00000000 @10 -> + 00000000 @00
Debug: 2360 1578 riscv-013.c:450 scan(): 41b - 00000000 @10 -> + 00000000 @10
Debug: 2361 1578 riscv-013.c:450 scan(): 41b w 00000001 @10 -> + 00000000 @00
Debug: 2362 1578 riscv-013.c:450 scan(): 41b - 00000000 @10 -> + 00000001 @10
Debug: 2363 1578 riscv-013.c:464 scan(): 	DMI_DMCONTROL:  dmactive 
Debug: 2364 1578 riscv-013.c:1836 examine(): Reset DM done!!
Debug: 2365 1579 riscv-013.c:450 scan(): 41b r 00000000 @11 -> + 00000000 @00
Debug: 2366 1579 riscv-013.c:450 scan(): 41b - 00000000 @11 -> + 004c03a2 @11
Debug: 2367 1579 riscv-013.c:464 scan(): 	DMI_DMSTATUS:  impebreak allhavereset anyhavereset allhalted anyhalted authenticated hasresethaltreq version=0x2 
Debug: 2368 1579 riscv-013.c:450 scan(): 41b w 00000001 @10 -> + 00000000 @00
Debug: 2369 1580 riscv-013.c:450 scan(): 41b - 00000000 @10 -> + 00000001 @10
Debug: 2370 1580 riscv-013.c:464 scan(): 	DMI_DMCONTROL:  dmactive 
Debug: 2371 1580 riscv-013.c:450 scan(): 41b r 00000000 @10 -> + 00000000 @00
Debug: 2372 1580 riscv-013.c:450 scan(): 41b - 00000000 @10 -> + 00000001 @10
Debug: 2373 1580 riscv-013.c:464 scan(): 	DMI_DMCONTROL:  dmactive 
Debug: 2374 1581 riscv-013.c:450 scan(): 41b r 00000000 @12 -> + 00000000 @00
Debug: 2375 1581 riscv-013.c:450 scan(): 41b - 00000000 @12 -> + 002140c0 @12
Debug: 2376 1581 riscv-013.c:1847 examine(): dmcontrol: 0x00000001
Debug: 2377 1581 riscv-013.c:1848 examine(): dmstatus:  0x004c03a2
Debug: 2378 1581 riscv-013.c:1849 examine(): hartinfo:  0x002140c0
Debug: 2379 1581 riscv-013.c:450 scan(): 41b r 00000000 @38 -> + 00000000 @00
Debug: 2380 1581 riscv-013.c:450 scan(): 41b - 00000000 @38 -> + 00000000 @38
Debug: 2381 1581 riscv-013.c:1897 examine(): info->sbcs = 0x0, nds_sys_bus_supported = 0x0
Debug: 2382 1581 riscv-013.c:1898 examine(): nds_jtag_max_scans: 32
Debug: 2383 1582 riscv-013.c:450 scan(): 41b r 00000000 @16 -> + 00000000 @00
Debug: 2384 1582 riscv-013.c:450 scan(): 41b - 00000000 @16 -> + 08000004 @16
Debug: 2385 1582 riscv-013.c:464 scan(): 	DMI_ABSTRACTCS:  progbufsize=0x8 datacount=0x4 
Debug: 2386 1582 riscv-013.c:1916 examine(): user_def_hart_count = 0x40
Debug: 2387 1582 riscv-013.c:450 scan(): 41b r 00000000 @10 -> + 00000000 @00
Debug: 2388 1583 riscv-013.c:450 scan(): 41b - 00000000 @10 -> + 00000001 @10
Debug: 2389 1583 riscv-013.c:464 scan(): 	DMI_DMCONTROL:  dmactive 
Debug: 2390 1583 riscv-013.c:450 scan(): 41b w 00000001 @10 -> + 00000000 @00
Debug: 2391 1583 riscv-013.c:450 scan(): 41b - 00000000 @10 -> + 00000001 @10
Debug: 2392 1583 riscv-013.c:464 scan(): 	DMI_DMCONTROL:  dmactive 
Debug: 2393 1584 riscv-013.c:450 scan(): 41b r 00000000 @11 -> + 00000000 @00
Debug: 2394 1584 riscv-013.c:450 scan(): 41b - 00000000 @11 -> + 004c03a2 @11
Debug: 2395 1584 riscv-013.c:464 scan(): 	DMI_DMSTATUS:  impebreak allhavereset anyhavereset allhalted anyhalted authenticated hasresethaltreq version=0x2 
Debug: 2396 1584 riscv-013.c:450 scan(): 41b r 00000000 @10 -> + 00000000 @00
Debug: 2397 1585 riscv-013.c:450 scan(): 41b - 00000000 @10 -> + 00000001 @10
Debug: 2398 1585 riscv-013.c:464 scan(): 	DMI_DMCONTROL:  dmactive 
Debug: 2399 1585 riscv-013.c:450 scan(): 41b w 10000001 @10 -> + 00000000 @00
Debug: 2400 1586 riscv-013.c:450 scan(): 41b - 00000000 @10 -> + 10000001 @10
Debug: 2401 1586 riscv-013.c:464 scan(): 	DMI_DMCONTROL:  ackhavereset dmactive 
Debug: 2402 1586 riscv-013.c:450 scan(): 41b r 00000000 @11 -> + 00000000 @00
Debug: 2403 1586 riscv-013.c:450 scan(): 41b - 00000000 @11 -> + 004003a2 @11
Debug: 2404 1586 riscv-013.c:464 scan(): 	DMI_DMSTATUS:  impebreak allhalted anyhalted authenticated hasresethaltreq version=0x2 
Debug: 2405 1586 riscv-013.c:893 execute_abstract_command(): command=0x321008
Debug: 2406 1586 batch.c:139 riscv_batch_add_dmi_read(): batch->read_keys_used=0x0, batch->read_keys[] 0x2
Debug: 2407 1586 batch.c:146 riscv_batch_add_dmi_read(): read key 0 for batch 0x0x200baae0 is 1 (0x0x20086e48)
Debug: 2408 1586 batch.c:61 riscv_batch_run(): running a batch of 2 scans
Debug: 2409 1586 batch.c:177 riscv_batch_add_nop():   added NOP with in_value=0x20086e40
Debug: 2410 1586 batch.c:70 riscv_batch_run(): executing queue
Error: 2411 1587 riscv-013.c:950 execute_abstract_command(): command 0x321008 failed; abstractcs=0x8000304
